T2168 000:020.649   SEGGER J-Link V6.94 Log File
T2168 000:021.431   DLL Compiled: Jan  8 2021 13:01:30
T2168 000:021.448   Logging started @ 2021-06-27 08:55
T2168 000:021.462 - 21.469ms
T2168 000:021.762 JLINK_SetWarnOutHandler(...)
T2168 000:022.003 - 0.250ms
T2168 000:022.033 JLINK_OpenEx(...)
T2168 000:026.937   Firmware: J-Link V9 compiled Dec 13 2019 11:14:50
T2168 000:028.203   Decompressing FW timestamp took 936 us
T2168 000:035.384   Hardware: V9.60
T2168 000:035.432   S/N: 69612235
T2168 000:035.455   OEM: SEGGER
T2168 000:035.477   Feature(s): RDI, GDB, FlashDL, FlashBP, JFlash
T2168 000:037.509   TELNET listener socket opened on port 19021
T2168 000:038.168   WEBSRV Starting webserver
T2168 000:038.398   WEBSRV Webserver running on local port 19080
T2168 000:038.425 - 16.399ms returns "O.K."
T2168 000:038.468 JLINK_GetEmuCaps()
T2168 000:038.491 - 0.031ms returns 0xB9FF7BBF
T2168 000:038.520 JLINK_TIF_GetAvailable(...)
T2168 000:038.794 - 0.287ms
T2168 000:038.829 JLINK_SetErrorOutHandler(...)
T2168 000:038.854 - 0.032ms
T2168 000:039.369 JLINK_ExecCommand("ProjectFile = "D:\02_Mega\06_Projects\09_Bio_Education_Board\01_Software\02_Firmware\accelero-gyro-mag-ble-fw\app\arm5_no_packs\JLinkSettings.ini"", ...). 
T2168 000:075.818   Ref file found at: C:\Keil_v5\ARM\Segger\JLinkDevices.ref
T2168 000:076.259   XML referenced by ref file: C:\Program Files (x86)\SEGGER\JLink\JLinkDevices.xml
T2168 000:079.530   C:\Program Files (x86)\SEGGER\JLink\JLinkDevices.xml evaluated successfully.
T2168 000:154.488 - 115.144ms returns 0x00
T2168 000:165.962 JLINK_ExecCommand("Device = nRF52832_xxAA", ...). 
T2168 000:178.792   Device "NRF52832_XXAA" selected.
T2168 000:179.386 - 13.406ms returns 0x00
T2168 000:179.435 JLINK_GetHardwareVersion()
T2168 000:179.451 - 0.021ms returns 96000
T2168 000:179.468 JLINK_GetDLLVersion()
T2168 000:179.488 - 0.027ms returns 69400
T2168 000:179.506 JLINK_GetOEMString(...)
T2168 000:179.529 JLINK_GetFirmwareString(...)
T2168 000:179.542 - 0.020ms
T2168 000:212.731 JLINK_GetDLLVersion()
T2168 000:212.759 - 0.036ms returns 69400
T2168 000:212.786 JLINK_GetCompileDateTime()
T2168 000:212.803 - 0.024ms
T2168 000:229.356 JLINK_GetFirmwareString(...)
T2168 000:229.394 - 0.046ms
T2168 000:242.732 JLINK_GetHardwareVersion()
T2168 000:242.770 - 0.046ms returns 96000
T2168 000:255.735 JLINK_GetSN()
T2168 000:255.768 - 0.040ms returns 69612235
T2168 000:266.240 JLINK_GetOEMString(...)
T2168 000:287.520 JLINK_TIF_Select(JLINKARM_TIF_SWD)
T2168 000:288.307 - 0.801ms returns 0x00
T2168 000:288.334 JLINK_HasError()
T2168 000:288.687 JLINK_SetSpeed(5000)
T2168 000:288.846 - 0.172ms
T2168 000:288.889 JLINK_GetId()
T2168 000:300.727   InitTarget() start
T2168 000:300.766    J-Link Script File: Executing InitTarget()
T2168 000:313.583   InitTarget() end
T2168 000:327.813   Found SW-DP with ID 0x2BA01477
T2168 000:330.031   Old FW that does not support reading DPIDR via DAP jobs
T2168 000:342.776   DPv0 detected
T2168 000:353.331   Scanning AP map to find all available APs
T2168 000:363.866   AP[2]: Stopped AP scan as end of AP map has been reached
T2168 000:375.413   AP[0]: AHB-AP (IDR: 0x24770011)
T2168 000:386.195   AP[1]: JTAG-AP (IDR: 0x02880000)
T2168 000:396.414   Iterating through AP map to find AHB-AP to use
T2168 000:407.548   AP[0]: Core found
T2168 000:418.274   AP[0]: AHB-AP ROM base: 0xE00FF000
T2168 000:430.132   CPUID register: 0x410FC241. Implementer code: 0x41 (ARM)
T2168 000:444.662   Found Cortex-M4 r0p1, Little endian.
T2168 000:545.779   -- Max. mem block: 0x00010BD0
T2168 000:546.410   CPU_ReadMem(4 bytes @ 0xE000EDF0)
T2168 000:546.786   CPU_WriteMem(4 bytes @ 0xE000EDF0)
T2168 000:547.133   CPU_ReadMem(4 bytes @ 0xE0002000)
T2168 000:557.744   FPUnit: 6 code (BP) slots and 2 literal slots
T2168 000:557.797   CPU_ReadMem(4 bytes @ 0xE000EDFC)
T2168 000:558.362   CPU_WriteMem(4 bytes @ 0xE000EDFC)
T2168 000:558.675   CPU_ReadMem(4 bytes @ 0xE0001000)
T2168 000:559.001   CPU_WriteMem(4 bytes @ 0xE0001000)
T2168 000:559.329   CPU_ReadMem(4 bytes @ 0xE000ED88)
T2168 000:559.685   CPU_WriteMem(4 bytes @ 0xE000ED88)
T2168 000:559.995   CPU_ReadMem(4 bytes @ 0xE000ED88)
T2168 000:560.284   CPU_WriteMem(4 bytes @ 0xE000ED88)
T2168 000:571.310   CoreSight components:
T2168 000:581.571   ROMTbl[0] @ E00FF000
T2168 000:581.610   CPU_ReadMem(64 bytes @ 0xE00FF000)
T2168 000:582.211   CPU_ReadMem(32 bytes @ 0xE000EFE0)
T2168 000:593.800   ROMTbl[0][0]: E000E000, CID: B105E00D, PID: 000BB00C SCS-M7
T2168 000:593.867   CPU_ReadMem(32 bytes @ 0xE0001FE0)
T2168 000:605.306   ROMTbl[0][1]: E0001000, CID: B105E00D, PID: 003BB002 DWT
T2168 000:605.346   CPU_ReadMem(32 bytes @ 0xE0002FE0)
T2168 000:618.131   ROMTbl[0][2]: E0002000, CID: B105E00D, PID: 002BB003 FPB
T2168 000:618.183   CPU_ReadMem(32 bytes @ 0xE0000FE0)
T2168 000:628.987   ROMTbl[0][3]: E0000000, CID: B105E00D, PID: 003BB001 ITM
T2168 000:629.039   CPU_ReadMem(32 bytes @ 0xE0040FE0)
T2168 000:641.460   ROMTbl[0][4]: E0040000, CID: B105900D, PID: 000BB9A1 TPIU
T2168 000:641.520   CPU_ReadMem(32 bytes @ 0xE0041FE0)
T2168 000:657.077   ROMTbl[0][5]: E0041000, CID: B105900D, PID: 000BB925 ETM
T2168 000:657.457 - 368.589ms returns 0x2BA01477
T2168 000:657.501 JLINK_GetDLLVersion()
T2168 000:657.512 - 0.015ms returns 69400
T2168 000:657.527 JLINK_CORE_GetFound()
T2168 000:657.542 - 0.021ms returns 0xE0000FF
T2168 000:657.628 JLINK_GetDebugInfo(0x100 = JLINKARM_ROM_TABLE_ADDR_INDEX)
T2168 000:657.657   Value=0xE00FF000
T2168 000:657.675 - 0.052ms returns 0
T2168 000:667.905 JLINK_GetDebugInfo(0x100 = JLINKARM_ROM_TABLE_ADDR_INDEX)
T2168 000:667.941   Value=0xE00FF000
T2168 000:667.960 - 0.062ms returns 0
T2168 000:667.979 JLINK_GetDebugInfo(0x101 = JLINKARM_DEBUG_INFO_ETM_ADDR_INDEX)
T2168 000:667.993   Value=0xE0041000
T2168 000:668.011 - 0.039ms returns 0
T2168 000:668.028 JLINK_ReadMemEx(0xE0041FD0, 0x20 Bytes, Flags = 0x02000004)
T2168 000:668.106   CPU_ReadMem(32 bytes @ 0xE0041FD0)
T2168 000:668.578   Data:  04 00 00 00 00 00 00 00 00 00 00 00 00 00 00 00 ...
T2168 000:668.608 - 0.586ms returns 32 (0x20)
T2168 000:668.630 JLINK_GetDebugInfo(0x102 = JLINKARM_DEBUG_INFO_MTB_ADDR_INDEX)
T2168 000:668.646   Value=0x00000000
T2168 000:668.664 - 0.040ms returns 0
T2168 000:668.681 JLINK_GetDebugInfo(0x103 = JLINKARM_DEBUG_INFO_TPIU_ADDR_INDEX)
T2168 000:668.696   Value=0xE0040000
T2168 000:668.713 - 0.039ms returns 0
T2168 000:668.730 JLINK_GetDebugInfo(0x104 = JLINKARM_DEBUG_INFO_ITM_ADDR_INDEX)
T2168 000:668.744   Value=0xE0000000
T2168 000:668.762 - 0.037ms returns 0
T2168 000:668.778 JLINK_GetDebugInfo(0x105 = JLINKARM_DEBUG_INFO_DWT_ADDR_INDEX)
T2168 000:668.792   Value=0xE0001000
T2168 000:668.810 - 0.038ms returns 0
T2168 000:668.827 JLINK_GetDebugInfo(0x106 = JLINKARM_DEBUG_INFO_FPB_ADDR_INDEX)
T2168 000:668.841   Value=0xE0002000
T2168 000:668.859 - 0.038ms returns 0
T2168 000:668.876 JLINK_GetDebugInfo(0x107 = JLINKARM_DEBUG_INFO_NVIC_ADDR_INDEX)
T2168 000:668.890   Value=0xE000E000
T2168 000:668.908 - 0.038ms returns 0
T2168 000:668.925 JLINK_GetDebugInfo(0x10C = JLINKARM_DEBUG_INFO_DBG_ADDR_INDEX)
T2168 000:668.939   Value=0xE000EDF0
T2168 000:668.957 - 0.038ms returns 0
T2168 000:668.974 JLINK_GetDebugInfo(0x01 = Unknown)
T2168 000:668.988   Value=0x00000001
T2168 000:669.006 - 0.038ms returns 0
T2168 000:669.023 JLINK_ReadMemU32(0xE000ED00, 0x1 Items)
T2168 000:669.054   CPU_ReadMem(4 bytes @ 0xE000ED00)
T2168 000:669.358   Data:  41 C2 0F 41
T2168 000:669.381   Debug reg: CPUID
T2168 000:669.395 - 0.377ms returns 1 (0x1)
T2168 000:669.412 JLINK_GetDebugInfo(0x10F = JLINKARM_DEBUG_INFO_HAS_CORTEX_M_SECURITY_EXT_INDEX)
T2168 000:669.423   Value=0x00000000
T2168 000:669.437 - 0.030ms returns 0
T2168 000:669.450 JLINK_HasError()
T2168 000:669.464 JLINK_SetResetType(JLINKARM_CM3_RESET_TYPE_NORMAL)
T2168 000:669.474 - 0.017ms returns JLINKARM_CM3_RESET_TYPE_NORMAL
T2168 000:669.492 JLINK_Reset()
T2168 000:669.550   CPU is running
T2168 000:669.575   CPU_WriteMem(4 bytes @ 0xE000EDF0)
T2168 000:669.912   CPU is running
T2168 000:669.941   CPU_WriteMem(4 bytes @ 0xE000EDFC)
T2168 000:680.560   Reset: Halt core after reset via DEMCR.VC_CORERESET.
T2168 000:692.035   Reset: Reset device via AIRCR.SYSRESETREQ.
T2168 000:692.074   CPU is running
T2168 000:692.093   CPU_WriteMem(4 bytes @ 0xE000ED0C)
T2168 000:744.883   CPU_ReadMem(4 bytes @ 0xE000EDF0)
T2168 000:745.216   CPU_ReadMem(4 bytes @ 0xE000EDF0)
T2168 000:745.624   CPU is running
T2168 000:745.665   CPU_WriteMem(4 bytes @ 0xE000EDF0)
T2168 000:745.988   CPU is running
T2168 000:746.018   CPU_WriteMem(4 bytes @ 0xE000EDFC)
T2168 000:752.411   CPU_ReadMem(4 bytes @ 0xE000EDF0)
T2168 000:755.083   CPU_WriteMem(4 bytes @ 0xE0002000)
T2168 000:755.416   CPU_ReadMem(4 bytes @ 0xE000EDFC)
T2168 000:755.778   CPU_ReadMem(4 bytes @ 0xE0001000)
T2168 000:756.093 - 86.614ms
T2168 000:756.128 JLINK_Halt()
T2168 000:756.144 - 0.022ms returns 0x00
T2168 000:756.165 JLINK_ReadMemU32(0xE000EDF0, 0x1 Items)
T2168 000:756.190   CPU_ReadMem(4 bytes @ 0xE000EDF0)
T2168 000:756.481   Data:  03 00 03 00
T2168 000:756.507   Debug reg: DHCSR
T2168 000:756.526 - 0.368ms returns 1 (0x1)
T2168 000:756.551 JLINK_WriteU32_64(0xE000EDF0, 0xA05F0003)
T2168 000:756.567   Debug reg: DHCSR
T2168 000:757.106   CPU_WriteMem(4 bytes @ 0xE000EDF0)
T2168 000:757.456 - 0.920ms returns 0 (0x00000000)
T2168 000:757.491 JLINK_WriteU32_64(0xE000EDFC, 0x01000000)
T2168 000:757.508   Debug reg: DEMCR
T2168 000:757.538   CPU_WriteMem(4 bytes @ 0xE000EDFC)
T2168 000:757.883 - 0.405ms returns 0 (0x00000000)
T2168 000:798.759 JLINK_GetHWStatus(...)
T2168 000:799.010 - 0.274ms returns 0
T2168 000:830.337 JLINK_GetNumBPUnits(Type = 0xFFFFFF00)
T2168 000:830.375 - 0.046ms returns 0x06
T2168 000:830.394 JLINK_GetNumBPUnits(Type = 0xF0)
T2168 000:830.409 - 0.020ms returns 0x2000
T2168 000:830.426 JLINK_GetNumWPUnits()
T2168 000:830.439 - 0.020ms returns 4
T2168 000:867.697 JLINK_GetSpeed()
T2168 000:867.728 - 0.036ms returns 4000
T2168 000:887.614 JLINK_ReadMemU32(0xE000E004, 0x1 Items)
T2168 000:887.667   CPU_ReadMem(4 bytes @ 0xE000E004)
T2168 000:888.024   Data:  01 00 00 00
T2168 000:888.052 - 0.446ms returns 1 (0x1)
T2168 000:888.075 JLINK_ReadMemU32(0xE000E004, 0x1 Items)
T2168 000:888.098   CPU_ReadMem(4 bytes @ 0xE000E004)
T2168 000:888.435   Data:  01 00 00 00
T2168 000:888.461 - 0.391ms returns 1 (0x1)
T2168 000:888.478 JLINK_WriteMemEx(0xE0001000, 0x0000001C Bytes, Flags = 0x02000004)
T2168 000:888.490   Data:  01 00 00 00 00 00 00 00 00 00 00 00 00 00 00 00 ...
T2168 000:888.516   CPU_WriteMem(28 bytes @ 0xE0001000)
T2168 000:888.923 - 0.457ms returns 0x1C
T2168 000:888.955 JLINK_Halt()
T2168 000:888.971 - 0.022ms returns 0x00
T2168 000:888.989 JLINK_IsHalted()
T2168 000:889.003 - 0.021ms returns TRUE
T2168 000:895.738 JLINK_WriteMem(0x20000000, 0x5B8 Bytes, ...)
T2168 000:895.761   Data:  00 BE 0A E0 0D 78 2D 06 68 40 08 24 40 00 00 D3 ...
T2168 000:896.239   CPU_WriteMem(1464 bytes @ 0x20000000)
T2168 000:901.745 - 6.034ms returns 0x5B8
T2168 000:901.849 JLINK_HasError()
T2168 000:901.874 JLINK_WriteReg(R0, 0x00000000)
T2168 000:901.896 - 0.030ms returns 0
T2168 000:901.916 JLINK_WriteReg(R1, 0x00B71B00)
T2168 000:901.933 - 0.024ms returns 0
T2168 000:901.952 JLINK_WriteReg(R2, 0x00000001)
T2168 000:901.968 - 0.023ms returns 0
T2168 000:901.986 JLINK_WriteReg(R3, 0x00000000)
T2168 000:902.002 - 0.023ms returns 0
T2168 000:902.020 JLINK_WriteReg(R4, 0x00000000)
T2168 000:902.036 - 0.023ms returns 0
T2168 000:902.054 JLINK_WriteReg(R5, 0x00000000)
T2168 000:902.070 - 0.023ms returns 0
T2168 000:902.088 JLINK_WriteReg(R6, 0x00000000)
T2168 000:902.103 - 0.023ms returns 0
T2168 000:902.121 JLINK_WriteReg(R7, 0x00000000)
T2168 000:902.135 - 0.019ms returns 0
T2168 000:902.150 JLINK_WriteReg(R8, 0x00000000)
T2168 000:902.191 - 0.048ms returns 0
T2168 000:902.210 JLINK_WriteReg(R9, 0x200005B4)
T2168 000:902.226 - 0.022ms returns 0
T2168 000:902.243 JLINK_WriteReg(R10, 0x00000000)
T2168 000:902.258 - 0.020ms returns 0
T2168 000:902.271 JLINK_WriteReg(R11, 0x00000000)
T2168 000:902.286 - 0.023ms returns 0
T2168 000:902.302 JLINK_WriteReg(R12, 0x00000000)
T2168 000:902.316 - 0.020ms returns 0
T2168 000:902.336 JLINK_WriteReg(R13 (SP), 0x20004000)
T2168 000:902.353 - 0.024ms returns 0
T2168 000:902.371 JLINK_WriteReg(R14, 0x20000001)
T2168 000:902.386 - 0.022ms returns 0
T2168 000:902.403 JLINK_WriteReg(R15 (PC), 0x20000020)
T2168 000:902.432 - 0.036ms returns 0
T2168 000:902.450 JLINK_WriteReg(XPSR, 0x01000000)
T2168 000:902.466 - 0.023ms returns 0
T2168 000:902.483 JLINK_WriteReg(MSP, 0x20004000)
T2168 000:902.499 - 0.022ms returns 0
T2168 000:902.516 JLINK_WriteReg(PSP, 0x20004000)
T2168 000:902.532 - 0.022ms returns 0
T2168 000:902.549 JLINK_WriteReg(CFBP, 0x00000000)
T2168 000:902.565 - 0.022ms returns 0
T2168 000:902.582 JLINK_SetBPEx(Addr = 0x20000000, Type = 0xFFFFFFF2)
T2168 000:902.607   CPU_ReadMem(2 bytes @ 0x20000000)
T2168 000:902.969 - 0.400ms returns 0x00000001
T2168 000:902.998 JLINK_Go()
T2168 000:903.020   CPU_WriteMem(2 bytes @ 0x20000000)
T2168 000:903.371   CPU_ReadMem(4 bytes @ 0xE0001000)
T2168 000:903.689   CPU_WriteMem(4 bytes @ 0xE0002008)
T2168 000:903.716   CPU_WriteMem(4 bytes @ 0xE000200C)
T2168 000:903.731   CPU_WriteMem(4 bytes @ 0xE0002010)
T2168 000:903.747   CPU_WriteMem(4 bytes @ 0xE0002014)
T2168 000:903.762   CPU_WriteMem(4 bytes @ 0xE0002018)
T2168 000:903.776   CPU_WriteMem(4 bytes @ 0xE000201C)
T2168 000:904.794   CPU_WriteMem(4 bytes @ 0xE0001004)
T2168 000:907.003 - 4.018ms
T2168 000:907.029 JLINK_IsHalted()
T2168 000:909.024   CPU_ReadMem(2 bytes @ 0x20000000)
T2168 000:909.386 - 2.375ms returns TRUE
T2168 000:909.423 JLINK_ReadReg(R15 (PC))
T2168 000:909.457 - 0.041ms returns 0x20000000
T2168 000:909.485 JLINK_ClrBPEx(BPHandle = 0x00000001)
T2168 000:909.503 - 0.025ms returns 0x00
T2168 000:909.522 JLINK_ReadReg(R0)
T2168 000:909.539 - 0.023ms returns 0x00000000
T2168 000:910.214 JLINK_HasError()
T2168 000:910.249 JLINK_WriteReg(R0, 0x00000000)
T2168 000:910.271 - 0.030ms returns 0
T2168 000:910.291 JLINK_WriteReg(R1, 0x00B71B00)
T2168 000:910.313 - 0.030ms returns 0
T2168 000:910.333 JLINK_WriteReg(R2, 0x00000001)
T2168 000:910.348 - 0.022ms returns 0
T2168 000:910.366 JLINK_WriteReg(R3, 0x00000000)
T2168 000:910.381 - 0.022ms returns 0
T2168 000:910.399 JLINK_WriteReg(R4, 0x00000000)
T2168 000:910.414 - 0.022ms returns 0
T2168 000:910.432 JLINK_WriteReg(R5, 0x00000000)
T2168 000:910.447 - 0.022ms returns 0
T2168 000:910.465 JLINK_WriteReg(R6, 0x00000000)
T2168 000:910.480 - 0.021ms returns 0
T2168 000:910.497 JLINK_WriteReg(R7, 0x00000000)
T2168 000:910.512 - 0.021ms returns 0
T2168 000:910.529 JLINK_WriteReg(R8, 0x00000000)
T2168 000:910.544 - 0.022ms returns 0
T2168 000:910.561 JLINK_WriteReg(R9, 0x200005B4)
T2168 000:910.580 - 0.029ms returns 0
T2168 000:910.604 JLINK_WriteReg(R10, 0x00000000)
T2168 000:910.621 - 0.023ms returns 0
T2168 000:910.637 JLINK_WriteReg(R11, 0x00000000)
T2168 000:910.653 - 0.023ms returns 0
T2168 000:910.672 JLINK_WriteReg(R12, 0x00000000)
T2168 000:910.689 - 0.024ms returns 0
T2168 000:910.708 JLINK_WriteReg(R13 (SP), 0x20004000)
T2168 000:910.725 - 0.024ms returns 0
T2168 000:910.743 JLINK_WriteReg(R14, 0x20000001)
T2168 000:910.760 - 0.025ms returns 0
T2168 000:910.780 JLINK_WriteReg(R15 (PC), 0x200000B8)
T2168 000:910.798 - 0.024ms returns 0
T2168 000:910.815 JLINK_WriteReg(XPSR, 0x01000000)
T2168 000:910.833 - 0.025ms returns 0
T2168 000:910.853 JLINK_WriteReg(MSP, 0x20004000)
T2168 000:910.869 - 0.023ms returns 0
T2168 000:910.887 JLINK_WriteReg(PSP, 0x20004000)
T2168 000:910.903 - 0.024ms returns 0
T2168 000:910.923 JLINK_WriteReg(CFBP, 0x00000000)
T2168 000:910.941 - 0.024ms returns 0
T2168 000:910.958 JLINK_SetBPEx(Addr = 0x20000000, Type = 0xFFFFFFF2)
T2168 000:910.977 - 0.029ms returns 0x00000002
T2168 000:911.002 JLINK_Go()
T2168 000:911.034   CPU_ReadMem(4 bytes @ 0xE0001000)
T2168 000:913.368 - 2.386ms
T2168 000:913.409 JLINK_IsHalted()
T2168 000:913.720 - 0.323ms returns FALSE
T2168 000:913.752 JLINK_HasError()
T2168 001:026.441 JLINK_IsHalted()
T2168 001:026.778 - 0.355ms returns FALSE
T2168 001:026.814 JLINK_HasError()
T2168 001:028.430 JLINK_IsHalted()
T2168 001:028.788 - 0.370ms returns FALSE
T2168 001:028.817 JLINK_HasError()
T2168 001:030.431 JLINK_IsHalted()
T2168 001:030.791 - 0.376ms returns FALSE
T2168 001:030.823 JLINK_HasError()
T2168 001:032.422 JLINK_IsHalted()
T2168 001:032.779 - 0.373ms returns FALSE
T2168 001:032.811 JLINK_HasError()
T2168 001:034.428 JLINK_IsHalted()
T2168 001:034.793 - 0.389ms returns FALSE
T2168 001:034.836 JLINK_HasError()
T2168 001:036.407 JLINK_IsHalted()
T2168 001:036.730 - 0.336ms returns FALSE
T2168 001:036.758 JLINK_HasError()
T2168 001:038.402 JLINK_IsHalted()
T2168 001:038.721 - 0.334ms returns FALSE
T2168 001:038.753 JLINK_HasError()
T2168 001:040.400 JLINK_IsHalted()
T2168 001:040.730 - 0.344ms returns FALSE
T2168 001:040.759 JLINK_HasError()
T2168 001:042.390 JLINK_IsHalted()
T2168 001:042.686 - 0.306ms returns FALSE
T2168 001:042.708 JLINK_HasError()
T2168 001:044.427 JLINK_IsHalted()
T2168 001:044.748 - 0.334ms returns FALSE
T2168 001:044.779 JLINK_HasError()
T2168 001:046.618 JLINK_IsHalted()
T2168 001:046.919 - 0.315ms returns FALSE
T2168 001:046.949 JLINK_HasError()
T2168 001:048.681 JLINK_IsHalted()
T2168 001:049.030 - 0.366ms returns FALSE
T2168 001:049.064 JLINK_HasError()
T2168 001:050.672 JLINK_IsHalted()
T2168 001:050.996 - 0.338ms returns FALSE
T2168 001:051.027 JLINK_HasError()
T2168 001:052.665 JLINK_IsHalted()
T2168 001:052.982 - 0.330ms returns FALSE
T2168 001:053.010 JLINK_HasError()
T2168 001:054.478 JLINK_IsHalted()
T2168 001:054.826 - 0.362ms returns FALSE
T2168 001:054.855 JLINK_HasError()
T2168 001:056.329 JLINK_IsHalted()
T2168 001:056.642 - 0.324ms returns FALSE
T2168 001:056.666 JLINK_HasError()
T2168 001:058.322 JLINK_IsHalted()
T2168 001:058.642 - 0.333ms returns FALSE
T2168 001:058.669 JLINK_HasError()
T2168 001:060.338 JLINK_IsHalted()
T2168 001:060.691 - 0.369ms returns FALSE
T2168 001:060.724 JLINK_HasError()
T2168 001:062.313 JLINK_IsHalted()
T2168 001:062.634 - 0.339ms returns FALSE
T2168 001:062.670 JLINK_HasError()
T2168 001:064.305 JLINK_IsHalted()
T2168 001:064.638 - 0.346ms returns FALSE
T2168 001:064.667 JLINK_HasError()
T2168 001:066.309 JLINK_IsHalted()
T2168 001:066.660 - 0.374ms returns FALSE
T2168 001:066.701 JLINK_HasError()
T2168 001:077.280 JLINK_IsHalted()
T2168 001:077.641 - 0.371ms returns FALSE
T2168 001:077.664 JLINK_HasError()
T2168 001:079.268 JLINK_IsHalted()
T2168 001:079.598 - 0.344ms returns FALSE
T2168 001:079.628 JLINK_HasError()
T2168 001:081.262 JLINK_IsHalted()
T2168 001:081.603 - 0.355ms returns FALSE
T2168 001:081.633 JLINK_HasError()
T2168 001:083.259 JLINK_IsHalted()
T2168 001:083.599 - 0.354ms returns FALSE
T2168 001:083.629 JLINK_HasError()
T2168 001:097.247 JLINK_IsHalted()
T2168 001:097.605 - 0.375ms returns FALSE
T2168 001:097.637 JLINK_HasError()
T2168 001:099.237 JLINK_IsHalted()
T2168 001:101.271   CPU_ReadMem(2 bytes @ 0x20000000)
T2168 001:101.644 - 2.419ms returns TRUE
T2168 001:101.670 JLINK_ReadReg(R15 (PC))
T2168 001:101.685 - 0.020ms returns 0x20000000
T2168 001:101.698 JLINK_ClrBPEx(BPHandle = 0x00000002)
T2168 001:101.709 - 0.016ms returns 0x00
T2168 001:101.722 JLINK_ReadReg(R0)
T2168 001:101.733 - 0.015ms returns 0x00000000
T2168 001:158.534 JLINK_HasError()
T2168 001:158.570 JLINK_WriteReg(R0, 0x00000001)
T2168 001:158.588 - 0.022ms returns 0
T2168 001:158.602 JLINK_WriteReg(R1, 0x00B71B00)
T2168 001:158.613 - 0.015ms returns 0
T2168 001:158.625 JLINK_WriteReg(R2, 0x00000001)
T2168 001:158.636 - 0.015ms returns 0
T2168 001:158.648 JLINK_WriteReg(R3, 0x00000000)
T2168 001:158.658 - 0.015ms returns 0
T2168 001:158.671 JLINK_WriteReg(R4, 0x00000000)
T2168 001:158.681 - 0.015ms returns 0
T2168 001:158.693 JLINK_WriteReg(R5, 0x00000000)
T2168 001:158.706 - 0.019ms returns 0
T2168 001:158.723 JLINK_WriteReg(R6, 0x00000000)
T2168 001:158.739 - 0.024ms returns 0
T2168 001:158.759 JLINK_WriteReg(R7, 0x00000000)
T2168 001:158.787 - 0.035ms returns 0
T2168 001:158.805 JLINK_WriteReg(R8, 0x00000000)
T2168 001:158.821 - 0.023ms returns 0
T2168 001:158.839 JLINK_WriteReg(R9, 0x200005B4)
T2168 001:158.851 - 0.018ms returns 0
T2168 001:158.864 JLINK_WriteReg(R10, 0x00000000)
T2168 001:158.875 - 0.015ms returns 0
T2168 001:158.887 JLINK_WriteReg(R11, 0x00000000)
T2168 001:158.898 - 0.015ms returns 0
T2168 001:158.910 JLINK_WriteReg(R12, 0x00000000)
T2168 001:158.920 - 0.015ms returns 0
T2168 001:158.933 JLINK_WriteReg(R13 (SP), 0x20004000)
T2168 001:158.944 - 0.016ms returns 0
T2168 001:158.959 JLINK_WriteReg(R14, 0x20000001)
T2168 001:158.974 - 0.022ms returns 0
T2168 001:158.991 JLINK_WriteReg(R15 (PC), 0x20000060)
T2168 001:159.007 - 0.022ms returns 0
T2168 001:159.024 JLINK_WriteReg(XPSR, 0x01000000)
T2168 001:159.040 - 0.022ms returns 0
T2168 001:159.057 JLINK_WriteReg(MSP, 0x20004000)
T2168 001:159.072 - 0.022ms returns 0
T2168 001:159.090 JLINK_WriteReg(PSP, 0x20004000)
T2168 001:159.105 - 0.022ms returns 0
T2168 001:159.124 JLINK_WriteReg(CFBP, 0x00000000)
T2168 001:159.135 - 0.016ms returns 0
T2168 001:159.148 JLINK_SetBPEx(Addr = 0x20000000, Type = 0xFFFFFFF2)
T2168 001:159.161 - 0.017ms returns 0x00000003
T2168 001:159.174 JLINK_Go()
T2168 001:159.197   CPU_ReadMem(4 bytes @ 0xE0001000)
T2168 001:161.391 - 2.232ms
T2168 001:161.419 JLINK_IsHalted()
T2168 001:163.378   CPU_ReadMem(2 bytes @ 0x20000000)
T2168 001:163.676 - 2.271ms returns TRUE
T2168 001:163.706 JLINK_ReadReg(R15 (PC))
T2168 001:163.725 - 0.039ms returns 0x20000000
T2168 001:163.757 JLINK_ClrBPEx(BPHandle = 0x00000003)
T2168 001:163.774 - 0.024ms returns 0x00
T2168 001:163.793 JLINK_ReadReg(R0)
T2168 001:163.809 - 0.023ms returns 0x00000000
T2168 001:165.795 JLINK_WriteMem(0x20000000, 0x504 Bytes, ...)
T2168 001:165.824   Data:  00 BE 0A E0 0D 78 2D 06 68 40 08 24 40 00 00 D3 ...
T2168 001:165.872   CPU_WriteMem(1284 bytes @ 0x20000000)
T2168 001:171.273 - 5.506ms returns 0x504
T2168 001:171.382 JLINK_HasError()
T2168 001:171.410 JLINK_WriteReg(R0, 0x10001000)
T2168 001:171.433 - 0.031ms returns 0
T2168 001:171.453 JLINK_WriteReg(R1, 0x00B71B00)
T2168 001:171.469 - 0.024ms returns 0
T2168 001:171.487 JLINK_WriteReg(R2, 0x00000001)
T2168 001:171.504 - 0.023ms returns 0
T2168 001:171.522 JLINK_WriteReg(R3, 0x00000000)
T2168 001:171.538 - 0.023ms returns 0
T2168 001:171.555 JLINK_WriteReg(R4, 0x00000000)
T2168 001:171.571 - 0.026ms returns 0
T2168 001:171.596 JLINK_WriteReg(R5, 0x00000000)
T2168 001:171.616 - 0.028ms returns 0
T2168 001:171.636 JLINK_WriteReg(R6, 0x00000000)
T2168 001:171.654 - 0.026ms returns 0
T2168 001:171.674 JLINK_WriteReg(R7, 0x00000000)
T2168 001:171.691 - 0.024ms returns 0
T2168 001:171.711 JLINK_WriteReg(R8, 0x00000000)
T2168 001:171.727 - 0.023ms returns 0
T2168 001:171.763 JLINK_WriteReg(R9, 0x20000500)
T2168 001:171.780 - 0.023ms returns 0
T2168 001:171.805 JLINK_WriteReg(R10, 0x00000000)
T2168 001:171.823 - 0.025ms returns 0
T2168 001:171.885 JLINK_WriteReg(R11, 0x00000000)
T2168 001:171.906 - 0.028ms returns 0
T2168 001:171.925 JLINK_WriteReg(R12, 0x00000000)
T2168 001:171.946 - 0.025ms returns 0
T2168 001:171.960 JLINK_WriteReg(R13 (SP), 0x20004000)
T2168 001:171.971 - 0.016ms returns 0
T2168 001:171.985 JLINK_WriteReg(R14, 0x20000001)
T2168 001:172.000 - 0.022ms returns 0
T2168 001:172.018 JLINK_WriteReg(R15 (PC), 0x20000020)
T2168 001:172.033 - 0.022ms returns 0
T2168 001:172.051 JLINK_WriteReg(XPSR, 0x01000000)
T2168 001:172.071 - 0.030ms returns 0
T2168 001:172.094 JLINK_WriteReg(MSP, 0x20004000)
T2168 001:172.112 - 0.026ms returns 0
T2168 001:172.134 JLINK_WriteReg(PSP, 0x20004000)
T2168 001:172.157 - 0.032ms returns 0
T2168 001:172.182 JLINK_WriteReg(CFBP, 0x00000000)
T2168 001:172.199 - 0.022ms returns 0
T2168 001:172.215 JLINK_SetBPEx(Addr = 0x20000000, Type = 0xFFFFFFF2)
T2168 001:172.241   CPU_ReadMem(2 bytes @ 0x20000000)
T2168 001:172.616 - 0.417ms returns 0x00000004
T2168 001:172.651 JLINK_Go()
T2168 001:172.686   CPU_WriteMem(2 bytes @ 0x20000000)
T2168 001:173.039   CPU_ReadMem(4 bytes @ 0xE0001000)
T2168 001:175.365 - 2.737ms
T2168 001:175.410 JLINK_IsHalted()
T2168 001:177.436   CPU_ReadMem(2 bytes @ 0x20000000)
T2168 001:177.818 - 2.425ms returns TRUE
T2168 001:177.852 JLINK_ReadReg(R15 (PC))
T2168 001:177.872 - 0.028ms returns 0x20000000
T2168 001:177.892 JLINK_ClrBPEx(BPHandle = 0x00000004)
T2168 001:177.910 - 0.024ms returns 0x00
T2168 001:177.929 JLINK_ReadReg(R0)
T2168 001:177.945 - 0.024ms returns 0x00000000
T2168 001:178.970 JLINK_HasError()
T2168 001:179.003 JLINK_WriteReg(R0, 0x10001000)
T2168 001:179.023 - 0.027ms returns 0
T2168 001:179.042 JLINK_WriteReg(R1, 0x00B71B00)
T2168 001:179.058 - 0.023ms returns 0
T2168 001:179.076 JLINK_WriteReg(R2, 0x00000001)
T2168 001:179.091 - 0.022ms returns 0
T2168 001:179.109 JLINK_WriteReg(R3, 0x00000000)
T2168 001:179.124 - 0.022ms returns 0
T2168 001:179.142 JLINK_WriteReg(R4, 0x00000000)
T2168 001:179.157 - 0.022ms returns 0
T2168 001:179.175 JLINK_WriteReg(R5, 0x00000000)
T2168 001:179.190 - 0.022ms returns 0
T2168 001:179.207 JLINK_WriteReg(R6, 0x00000000)
T2168 001:179.222 - 0.022ms returns 0
T2168 001:179.240 JLINK_WriteReg(R7, 0x00000000)
T2168 001:179.255 - 0.022ms returns 0
T2168 001:179.272 JLINK_WriteReg(R8, 0x00000000)
T2168 001:179.287 - 0.022ms returns 0
T2168 001:179.307 JLINK_WriteReg(R9, 0x20000500)
T2168 001:179.323 - 0.022ms returns 0
T2168 001:179.340 JLINK_WriteReg(R10, 0x00000000)
T2168 001:179.356 - 0.022ms returns 0
T2168 001:179.373 JLINK_WriteReg(R11, 0x00000000)
T2168 001:179.389 - 0.022ms returns 0
T2168 001:179.406 JLINK_WriteReg(R12, 0x00000000)
T2168 001:179.422 - 0.022ms returns 0
T2168 001:179.439 JLINK_WriteReg(R13 (SP), 0x20004000)
T2168 001:179.456 - 0.023ms returns 0
T2168 001:179.474 JLINK_WriteReg(R14, 0x20000001)
T2168 001:179.489 - 0.022ms returns 0
T2168 001:179.507 JLINK_WriteReg(R15 (PC), 0x200000A4)
T2168 001:179.522 - 0.022ms returns 0
T2168 001:179.540 JLINK_WriteReg(XPSR, 0x01000000)
T2168 001:179.555 - 0.022ms returns 0
T2168 001:179.573 JLINK_WriteReg(MSP, 0x20004000)
T2168 001:179.588 - 0.022ms returns 0
T2168 001:179.605 JLINK_WriteReg(PSP, 0x20004000)
T2168 001:179.620 - 0.022ms returns 0
T2168 001:179.637 JLINK_WriteReg(CFBP, 0x00000000)
T2168 001:179.653 - 0.022ms returns 0
T2168 001:179.671 JLINK_SetBPEx(Addr = 0x20000000, Type = 0xFFFFFFF2)
T2168 001:179.688 - 0.025ms returns 0x00000005
T2168 001:179.707 JLINK_Go()
T2168 001:179.736   CPU_ReadMem(4 bytes @ 0xE0001000)
T2168 001:182.008 - 2.322ms
T2168 001:182.046 JLINK_IsHalted()
T2168 001:182.331 - 0.298ms returns FALSE
T2168 001:182.359 JLINK_HasError()
T2168 001:202.270 JLINK_IsHalted()
T2168 001:204.482   CPU_ReadMem(2 bytes @ 0x20000000)
T2168 001:204.791 - 2.537ms returns TRUE
T2168 001:204.821 JLINK_ReadReg(R15 (PC))
T2168 001:204.840 - 0.027ms returns 0x20000000
T2168 001:204.860 JLINK_ClrBPEx(BPHandle = 0x00000005)
T2168 001:204.877 - 0.024ms returns 0x00
T2168 001:204.895 JLINK_ReadReg(R0)
T2168 001:204.912 - 0.023ms returns 0x00000000
T2168 001:258.054 JLINK_HasError()
T2168 001:258.090 JLINK_WriteReg(R0, 0x00000001)
T2168 001:258.107 - 0.023ms returns 0
T2168 001:258.121 JLINK_WriteReg(R1, 0x00B71B00)
T2168 001:258.136 - 0.022ms returns 0
T2168 001:258.154 JLINK_WriteReg(R2, 0x00000001)
T2168 001:258.169 - 0.022ms returns 0
T2168 001:258.186 JLINK_WriteReg(R3, 0x00000000)
T2168 001:258.202 - 0.022ms returns 0
T2168 001:258.219 JLINK_WriteReg(R4, 0x00000000)
T2168 001:258.235 - 0.022ms returns 0
T2168 001:258.255 JLINK_WriteReg(R5, 0x00000000)
T2168 001:258.271 - 0.022ms returns 0
T2168 001:258.288 JLINK_WriteReg(R6, 0x00000000)
T2168 001:258.303 - 0.022ms returns 0
T2168 001:258.320 JLINK_WriteReg(R7, 0x00000000)
T2168 001:258.335 - 0.022ms returns 0
T2168 001:258.353 JLINK_WriteReg(R8, 0x00000000)
T2168 001:258.368 - 0.022ms returns 0
T2168 001:258.386 JLINK_WriteReg(R9, 0x20000500)
T2168 001:258.401 - 0.022ms returns 0
T2168 001:258.418 JLINK_WriteReg(R10, 0x00000000)
T2168 001:258.441 - 0.034ms returns 0
T2168 001:258.463 JLINK_WriteReg(R11, 0x00000000)
T2168 001:258.479 - 0.022ms returns 0
T2168 001:258.496 JLINK_WriteReg(R12, 0x00000000)
T2168 001:258.512 - 0.022ms returns 0
T2168 001:258.529 JLINK_WriteReg(R13 (SP), 0x20004000)
T2168 001:258.614 - 0.093ms returns 0
T2168 001:258.633 JLINK_WriteReg(R14, 0x20000001)
T2168 001:258.649 - 0.022ms returns 0
T2168 001:258.667 JLINK_WriteReg(R15 (PC), 0x20000054)
T2168 001:258.682 - 0.022ms returns 0
T2168 001:258.700 JLINK_WriteReg(XPSR, 0x01000000)
T2168 001:258.715 - 0.022ms returns 0
T2168 001:258.733 JLINK_WriteReg(MSP, 0x20004000)
T2168 001:258.748 - 0.022ms returns 0
T2168 001:258.766 JLINK_WriteReg(PSP, 0x20004000)
T2168 001:258.781 - 0.021ms returns 0
T2168 001:258.798 JLINK_WriteReg(CFBP, 0x00000000)
T2168 001:258.813 - 0.022ms returns 0
T2168 001:258.831 JLINK_SetBPEx(Addr = 0x20000000, Type = 0xFFFFFFF2)
T2168 001:258.848 - 0.022ms returns 0x00000006
T2168 001:258.862 JLINK_Go()
T2168 001:258.884   CPU_ReadMem(4 bytes @ 0xE0001000)
T2168 001:261.174 - 2.330ms
T2168 001:261.209 JLINK_IsHalted()
T2168 001:263.140   CPU_ReadMem(2 bytes @ 0x20000000)
T2168 001:263.440 - 2.246ms returns TRUE
T2168 001:263.471 JLINK_ReadReg(R15 (PC))
T2168 001:263.492 - 0.028ms returns 0x20000000
T2168 001:263.511 JLINK_ClrBPEx(BPHandle = 0x00000006)
T2168 001:263.528 - 0.023ms returns 0x00
T2168 001:263.546 JLINK_ReadReg(R0)
T2168 001:263.562 - 0.023ms returns 0x00000000
T2168 001:280.411 JLINK_WriteMem(0x20000000, 0x5B8 Bytes, ...)
T2168 001:280.441   Data:  00 BE 0A E0 0D 78 2D 06 68 40 08 24 40 00 00 D3 ...
T2168 001:280.480   CPU_WriteMem(1464 bytes @ 0x20000000)
T2168 001:285.933 - 5.545ms returns 0x5B8
T2168 001:286.016 JLINK_HasError()
T2168 001:286.037 JLINK_WriteReg(R0, 0x00000000)
T2168 001:286.056 - 0.023ms returns 0
T2168 001:286.069 JLINK_WriteReg(R1, 0x00B71B00)
T2168 001:286.080 - 0.015ms returns 0
T2168 001:286.094 JLINK_WriteReg(R2, 0x00000002)
T2168 001:286.109 - 0.022ms returns 0
T2168 001:286.127 JLINK_WriteReg(R3, 0x00000000)
T2168 001:286.143 - 0.022ms returns 0
T2168 001:286.160 JLINK_WriteReg(R4, 0x00000000)
T2168 001:286.179 - 0.026ms returns 0
T2168 001:286.197 JLINK_WriteReg(R5, 0x00000000)
T2168 001:286.213 - 0.022ms returns 0
T2168 001:286.230 JLINK_WriteReg(R6, 0x00000000)
T2168 001:286.245 - 0.022ms returns 0
T2168 001:286.262 JLINK_WriteReg(R7, 0x00000000)
T2168 001:286.277 - 0.022ms returns 0
T2168 001:286.295 JLINK_WriteReg(R8, 0x00000000)
T2168 001:286.310 - 0.022ms returns 0
T2168 001:286.327 JLINK_WriteReg(R9, 0x200005B4)
T2168 001:286.342 - 0.021ms returns 0
T2168 001:286.360 JLINK_WriteReg(R10, 0x00000000)
T2168 001:286.375 - 0.022ms returns 0
T2168 001:286.393 JLINK_WriteReg(R11, 0x00000000)
T2168 001:286.408 - 0.022ms returns 0
T2168 001:286.425 JLINK_WriteReg(R12, 0x00000000)
T2168 001:286.441 - 0.021ms returns 0
T2168 001:286.458 JLINK_WriteReg(R13 (SP), 0x20004000)
T2168 001:286.474 - 0.023ms returns 0
T2168 001:286.492 JLINK_WriteReg(R14, 0x20000001)
T2168 001:286.507 - 0.022ms returns 0
T2168 001:286.524 JLINK_WriteReg(R15 (PC), 0x20000020)
T2168 001:286.540 - 0.022ms returns 0
T2168 001:286.557 JLINK_WriteReg(XPSR, 0x01000000)
T2168 001:286.572 - 0.021ms returns 0
T2168 001:286.589 JLINK_WriteReg(MSP, 0x20004000)
T2168 001:286.604 - 0.022ms returns 0
T2168 001:286.622 JLINK_WriteReg(PSP, 0x20004000)
T2168 001:286.637 - 0.022ms returns 0
T2168 001:286.655 JLINK_WriteReg(CFBP, 0x00000000)
T2168 001:286.670 - 0.021ms returns 0
T2168 001:286.687 JLINK_SetBPEx(Addr = 0x20000000, Type = 0xFFFFFFF2)
T2168 001:286.711   CPU_ReadMem(2 bytes @ 0x20000000)
T2168 001:287.030 - 0.357ms returns 0x00000007
T2168 001:287.057 JLINK_Go()
T2168 001:287.075   CPU_WriteMem(2 bytes @ 0x20000000)
T2168 001:287.390   CPU_ReadMem(4 bytes @ 0xE0001000)
T2168 001:289.725 - 2.690ms
T2168 001:289.766 JLINK_IsHalted()
T2168 001:291.755   CPU_ReadMem(2 bytes @ 0x20000000)
T2168 001:292.111 - 2.361ms returns TRUE
T2168 001:292.145 JLINK_ReadReg(R15 (PC))
T2168 001:292.253 - 0.116ms returns 0x20000000
T2168 001:292.274 JLINK_ClrBPEx(BPHandle = 0x00000007)
T2168 001:292.291 - 0.024ms returns 0x00
T2168 001:292.310 JLINK_ReadReg(R0)
T2168 001:292.326 - 0.023ms returns 0x00000000
T2168 001:293.077 JLINK_WriteMem(0x200005C8, 0x238 Bytes, ...)
T2168 001:293.101   Data:  F0 73 00 20 C1 63 02 00 C9 63 02 00 CB 63 02 00 ...
T2168 001:293.136   CPU_WriteMem(568 bytes @ 0x200005C8)
T2168 001:295.611 - 2.555ms returns 0x238
T2168 001:295.659 JLINK_WriteMem(0x20000800, 0x400 Bytes, ...)
T2168 001:295.677   Data:  02 03 40 E8 01 34 00 2C E9 D1 4F F0 01 00 0A 60 ...
T2168 001:295.714   CPU_WriteMem(1024 bytes @ 0x20000800)
T2168 001:299.649 - 4.018ms returns 0x400
T2168 001:299.710 JLINK_WriteMem(0x20000C00, 0x400 Bytes, ...)
T2168 001:299.734   Data:  74 F8 03 B0 00 BD 01 F0 00 43 30 B4 21 F0 00 41 ...
T2168 001:299.776   CPU_WriteMem(1024 bytes @ 0x20000C00)
T2168 001:303.739 - 4.054ms returns 0x400
T2168 001:303.795 JLINK_WriteMem(0x20001000, 0x400 Bytes, ...)
T2168 001:303.813   Data:  FE 83 4F F0 00 48 4F F4 8C 79 67 69 1D E0 00 BF ...
T2168 001:303.848   CPU_WriteMem(1024 bytes @ 0x20001000)
T2168 001:307.775 - 4.000ms returns 0x400
T2168 001:307.816 JLINK_WriteMem(0x20001400, 0x1C8 Bytes, ...)
T2168 001:307.832   Data:  00 C0 07 40 3C 05 00 40 FC ED 00 E0 10 56 00 40 ...
T2168 001:307.858   CPU_WriteMem(456 bytes @ 0x20001400)
T2168 001:309.870 - 2.071ms returns 0x1C8
T2168 001:309.909 JLINK_HasError()
T2168 001:309.933 JLINK_WriteReg(R0, 0x00026000)
T2168 001:309.954 - 0.028ms returns 0
T2168 001:309.976 JLINK_WriteReg(R1, 0x00001000)
T2168 001:309.993 - 0.024ms returns 0
T2168 001:310.014 JLINK_WriteReg(R2, 0x200005C8)
T2168 001:310.030 - 0.023ms returns 0
T2168 001:310.051 JLINK_WriteReg(R3, 0x00000000)
T2168 001:310.068 - 0.023ms returns 0
T2168 001:310.088 JLINK_WriteReg(R4, 0x00000000)
T2168 001:310.104 - 0.023ms returns 0
T2168 001:310.125 JLINK_WriteReg(R5, 0x00000000)
T2168 001:310.141 - 0.023ms returns 0
T2168 001:310.162 JLINK_WriteReg(R6, 0x00000000)
T2168 001:310.178 - 0.023ms returns 0
T2168 001:310.199 JLINK_WriteReg(R7, 0x00000000)
T2168 001:310.218 - 0.026ms returns 0
T2168 001:310.239 JLINK_WriteReg(R8, 0x00000000)
T2168 001:310.256 - 0.023ms returns 0
T2168 001:310.276 JLINK_WriteReg(R9, 0x200005B4)
T2168 001:310.292 - 0.023ms returns 0
T2168 001:310.313 JLINK_WriteReg(R10, 0x00000000)
T2168 001:310.329 - 0.023ms returns 0
T2168 001:310.349 JLINK_WriteReg(R11, 0x00000000)
T2168 001:310.366 - 0.023ms returns 0
T2168 001:310.386 JLINK_WriteReg(R12, 0x00000000)
T2168 001:310.402 - 0.023ms returns 0
T2168 001:310.422 JLINK_WriteReg(R13 (SP), 0x20004000)
T2168 001:310.440 - 0.024ms returns 0
T2168 001:310.460 JLINK_WriteReg(R14, 0x20000001)
T2168 001:310.476 - 0.022ms returns 0
T2168 001:310.497 JLINK_WriteReg(R15 (PC), 0x20000154)
T2168 001:310.513 - 0.022ms returns 0
T2168 001:310.532 JLINK_WriteReg(XPSR, 0x01000000)
T2168 001:310.548 - 0.022ms returns 0
T2168 001:310.573 JLINK_WriteReg(MSP, 0x20004000)
T2168 001:310.596 - 0.029ms returns 0
T2168 001:310.617 JLINK_WriteReg(PSP, 0x20004000)
T2168 001:310.640 - 0.029ms returns 0
T2168 001:310.660 JLINK_WriteReg(CFBP, 0x00000000)
T2168 001:310.676 - 0.023ms returns 0
T2168 001:310.697 JLINK_SetBPEx(Addr = 0x20000000, Type = 0xFFFFFFF2)
T2168 001:310.715 - 0.025ms returns 0x00000008
T2168 001:310.736 JLINK_Go()
T2168 001:310.764   CPU_ReadMem(4 bytes @ 0xE0001000)
T2168 001:312.977 - 2.256ms
T2168 001:313.011 JLINK_IsHalted()
T2168 001:313.295 - 0.295ms returns FALSE
T2168 001:313.324 JLINK_HasError()
T2168 001:332.562 JLINK_IsHalted()
T2168 001:332.968 - 0.428ms returns FALSE
T2168 001:333.008 JLINK_HasError()
T2168 001:334.555 JLINK_IsHalted()
T2168 001:334.902 - 0.359ms returns FALSE
T2168 001:334.930 JLINK_HasError()
T2168 001:336.405 JLINK_IsHalted()
T2168 001:336.726 - 0.332ms returns FALSE
T2168 001:336.748 JLINK_HasError()
T2168 001:338.408 JLINK_IsHalted()
T2168 001:338.720 - 0.322ms returns FALSE
T2168 001:338.812 JLINK_HasError()
T2168 001:340.398 JLINK_IsHalted()
T2168 001:340.725 - 0.338ms returns FALSE
T2168 001:340.748 JLINK_HasError()
T2168 001:342.390 JLINK_IsHalted()
T2168 001:342.728 - 0.350ms returns FALSE
T2168 001:342.752 JLINK_HasError()
T2168 001:344.283 JLINK_IsHalted()
T2168 001:344.607 - 0.337ms returns FALSE
T2168 001:344.637 JLINK_HasError()
T2168 001:346.275 JLINK_IsHalted()
T2168 001:346.604 - 0.340ms returns FALSE
T2168 001:346.627 JLINK_HasError()
T2168 001:348.271 JLINK_IsHalted()
T2168 001:348.608 - 0.357ms returns FALSE
T2168 001:348.662 JLINK_HasError()
T2168 001:350.268 JLINK_IsHalted()
T2168 001:350.651 - 0.400ms returns FALSE
T2168 001:350.685 JLINK_HasError()
T2168 001:352.263 JLINK_IsHalted()
T2168 001:352.598 - 0.348ms returns FALSE
T2168 001:352.626 JLINK_HasError()
T2168 001:354.260 JLINK_IsHalted()
T2168 001:354.597 - 0.350ms returns FALSE
T2168 001:354.623 JLINK_HasError()
T2168 001:356.249 JLINK_IsHalted()
T2168 001:356.640 - 0.406ms returns FALSE
T2168 001:356.672 JLINK_HasError()
T2168 001:358.243 JLINK_IsHalted()
T2168 001:358.585 - 0.355ms returns FALSE
T2168 001:358.613 JLINK_HasError()
T2168 001:360.247 JLINK_IsHalted()
T2168 001:360.603 - 0.372ms returns FALSE
T2168 001:360.634 JLINK_HasError()
T2168 001:362.234 JLINK_IsHalted()
T2168 001:362.603 - 0.384ms returns FALSE
T2168 001:362.634 JLINK_HasError()
T2168 001:364.234 JLINK_IsHalted()
T2168 001:364.605 - 0.382ms returns FALSE
T2168 001:364.639 JLINK_HasError()
T2168 001:366.245 JLINK_IsHalted()
T2168 001:366.610 - 0.382ms returns FALSE
T2168 001:366.644 JLINK_HasError()
T2168 001:379.076 JLINK_IsHalted()
T2168 001:379.421 - 0.361ms returns FALSE
T2168 001:379.452 JLINK_HasError()
T2168 001:381.061 JLINK_IsHalted()
T2168 001:381.376 - 0.328ms returns FALSE
T2168 001:381.406 JLINK_HasError()
T2168 001:383.056 JLINK_IsHalted()
T2168 001:385.096   CPU_ReadMem(2 bytes @ 0x20000000)
T2168 001:385.442 - 2.402ms returns TRUE
T2168 001:385.476 JLINK_ReadReg(R15 (PC))
T2168 001:385.497 - 0.029ms returns 0x20000000
T2168 001:385.518 JLINK_ClrBPEx(BPHandle = 0x00000008)
T2168 001:385.535 - 0.024ms returns 0x00
T2168 001:385.554 JLINK_ReadReg(R0)
T2168 001:385.571 - 0.024ms returns 0x00000000
T2168 001:386.740 JLINK_WriteMem(0x200005C8, 0x238 Bytes, ...)
T2168 001:386.766   Data:  01 F0 02 FD 08 B1 07 28 08 D1 00 21 0A 22 08 46 ...
T2168 001:386.801   CPU_WriteMem(568 bytes @ 0x200005C8)
T2168 001:389.214 - 2.493ms returns 0x238
T2168 001:389.250 JLINK_WriteMem(0x20000800, 0x400 Bytes, ...)
T2168 001:389.267   Data:  D4 E9 00 12 30 68 C0 F8 14 25 C0 F8 0C 15 20 7D ...
T2168 001:389.301   CPU_WriteMem(1024 bytes @ 0x20000800)
T2168 001:393.170 - 3.938ms returns 0x400
T2168 001:393.210 JLINK_WriteMem(0x20000C00, 0x400 Bytes, ...)
T2168 001:393.228   Data:  5A E7 18 B5 04 46 00 20 AD F8 00 00 13 46 6A 46 ...
T2168 001:393.292   CPU_WriteMem(1024 bytes @ 0x20000C00)
T2168 001:397.183 - 3.990ms returns 0x400
T2168 001:397.218 JLINK_WriteMem(0x20001000, 0x400 Bytes, ...)
T2168 001:397.232   Data:  F7 B5 94 B0 17 46 05 00 3C D0 28 7C 9D F8 54 10 ...
T2168 001:397.266   CPU_WriteMem(1024 bytes @ 0x20001000)
T2168 001:401.230 - 4.034ms returns 0x400
T2168 001:401.275 JLINK_WriteMem(0x20001400, 0x1C8 Bytes, ...)
T2168 001:401.292   Data:  2D ED 02 0B 95 B0 05 00 27 D0 95 ED 05 0A DD ED ...
T2168 001:401.328   CPU_WriteMem(456 bytes @ 0x20001400)
T2168 001:403.477 - 2.219ms returns 0x1C8
T2168 001:403.514 JLINK_HasError()
T2168 001:403.540 JLINK_WriteReg(R0, 0x00027000)
T2168 001:403.564 - 0.032ms returns 0
T2168 001:403.590 JLINK_WriteReg(R1, 0x00001000)
T2168 001:403.614 - 0.029ms returns 0
T2168 001:403.635 JLINK_WriteReg(R2, 0x200005C8)
T2168 001:403.659 - 0.032ms returns 0
T2168 001:403.682 JLINK_WriteReg(R3, 0x00000000)
T2168 001:403.698 - 0.024ms returns 0
T2168 001:403.722 JLINK_WriteReg(R4, 0x00000000)
T2168 001:403.744 - 0.028ms returns 0
T2168 001:403.766 JLINK_WriteReg(R5, 0x00000000)
T2168 001:403.788 - 0.030ms returns 0
T2168 001:403.810 JLINK_WriteReg(R6, 0x00000000)
T2168 001:403.927 - 0.124ms returns 0
T2168 001:403.950 JLINK_WriteReg(R7, 0x00000000)
T2168 001:403.966 - 0.023ms returns 0
T2168 001:403.987 JLINK_WriteReg(R8, 0x00000000)
T2168 001:404.003 - 0.023ms returns 0
T2168 001:404.023 JLINK_WriteReg(R9, 0x200005B4)
T2168 001:404.039 - 0.023ms returns 0
T2168 001:404.059 JLINK_WriteReg(R10, 0x00000000)
T2168 001:404.075 - 0.022ms returns 0
T2168 001:404.095 JLINK_WriteReg(R11, 0x00000000)
T2168 001:404.111 - 0.022ms returns 0
T2168 001:404.131 JLINK_WriteReg(R12, 0x00000000)
T2168 001:404.147 - 0.023ms returns 0
T2168 001:404.167 JLINK_WriteReg(R13 (SP), 0x20004000)
T2168 001:404.184 - 0.024ms returns 0
T2168 001:404.205 JLINK_WriteReg(R14, 0x20000001)
T2168 001:404.220 - 0.022ms returns 0
T2168 001:404.240 JLINK_WriteReg(R15 (PC), 0x20000154)
T2168 001:404.256 - 0.022ms returns 0
T2168 001:404.276 JLINK_WriteReg(XPSR, 0x01000000)
T2168 001:404.292 - 0.022ms returns 0
T2168 001:404.312 JLINK_WriteReg(MSP, 0x20004000)
T2168 001:404.328 - 0.023ms returns 0
T2168 001:404.352 JLINK_WriteReg(PSP, 0x20004000)
T2168 001:404.375 - 0.030ms returns 0
T2168 001:404.397 JLINK_WriteReg(CFBP, 0x00000000)
T2168 001:404.419 - 0.028ms returns 0
T2168 001:404.440 JLINK_SetBPEx(Addr = 0x20000000, Type = 0xFFFFFFF2)
T2168 001:404.464 - 0.029ms returns 0x00000009
T2168 001:404.485 JLINK_Go()
T2168 001:404.518   CPU_ReadMem(4 bytes @ 0xE0001000)
T2168 001:406.810 - 2.343ms
T2168 001:406.850 JLINK_IsHalted()
T2168 001:407.142 - 0.307ms returns FALSE
T2168 001:407.176 JLINK_HasError()
T2168 001:414.565 JLINK_IsHalted()
T2168 001:414.912 - 0.368ms returns FALSE
T2168 001:414.946 JLINK_HasError()
T2168 001:416.548 JLINK_IsHalted()
T2168 001:416.873 - 0.341ms returns FALSE
T2168 001:416.907 JLINK_HasError()
T2168 001:418.542 JLINK_IsHalted()
T2168 001:418.895 - 0.368ms returns FALSE
T2168 001:418.926 JLINK_HasError()
T2168 001:420.541 JLINK_IsHalted()
T2168 001:420.876 - 0.351ms returns FALSE
T2168 001:420.908 JLINK_HasError()
T2168 001:422.530 JLINK_IsHalted()
T2168 001:422.851 - 0.336ms returns FALSE
T2168 001:422.883 JLINK_HasError()
T2168 001:424.530 JLINK_IsHalted()
T2168 001:424.882 - 0.366ms returns FALSE
T2168 001:424.913 JLINK_HasError()
T2168 001:432.504 JLINK_IsHalted()
T2168 001:432.839 - 0.354ms returns FALSE
T2168 001:432.882 JLINK_HasError()
T2168 001:434.498 JLINK_IsHalted()
T2168 001:434.815 - 0.331ms returns FALSE
T2168 001:434.844 JLINK_HasError()
T2168 001:436.491 JLINK_IsHalted()
T2168 001:436.836 - 0.359ms returns FALSE
T2168 001:436.865 JLINK_HasError()
T2168 001:438.486 JLINK_IsHalted()
T2168 001:438.865 - 0.396ms returns FALSE
T2168 001:438.899 JLINK_HasError()
T2168 001:440.487 JLINK_IsHalted()
T2168 001:440.827 - 0.354ms returns FALSE
T2168 001:440.857 JLINK_HasError()
T2168 001:442.484 JLINK_IsHalted()
T2168 001:442.876 - 0.405ms returns FALSE
T2168 001:442.906 JLINK_HasError()
T2168 001:444.476 JLINK_IsHalted()
T2168 001:444.837 - 0.375ms returns FALSE
T2168 001:444.867 JLINK_HasError()
T2168 001:446.356 JLINK_IsHalted()
T2168 001:446.682 - 0.341ms returns FALSE
T2168 001:446.712 JLINK_HasError()
T2168 001:448.341 JLINK_IsHalted()
T2168 001:448.654 - 0.326ms returns FALSE
T2168 001:448.683 JLINK_HasError()
T2168 001:450.337 JLINK_IsHalted()
T2168 001:450.674 - 0.352ms returns FALSE
T2168 001:450.704 JLINK_HasError()
T2168 001:452.333 JLINK_IsHalted()
T2168 001:452.685 - 0.365ms returns FALSE
T2168 001:452.714 JLINK_HasError()
T2168 001:454.328 JLINK_IsHalted()
T2168 001:454.680 - 0.366ms returns FALSE
T2168 001:454.710 JLINK_HasError()
T2168 001:455.890 JLINK_IsHalted()
T2168 001:456.200 - 0.323ms returns FALSE
T2168 001:456.232 JLINK_HasError()
T2168 001:457.950 JLINK_IsHalted()
T2168 001:458.271 - 0.334ms returns FALSE
T2168 001:458.305 JLINK_HasError()
T2168 001:459.943 JLINK_IsHalted()
T2168 001:460.254 - 0.326ms returns FALSE
T2168 001:460.285 JLINK_HasError()
T2168 001:461.936 JLINK_IsHalted()
T2168 001:462.233 - 0.310ms returns FALSE
T2168 001:462.344 JLINK_HasError()
T2168 001:463.938 JLINK_IsHalted()
T2168 001:464.269 - 0.344ms returns FALSE
T2168 001:464.298 JLINK_HasError()
T2168 001:465.461 JLINK_IsHalted()
T2168 001:465.770 - 0.324ms returns FALSE
T2168 001:465.801 JLINK_HasError()
T2168 001:467.596 JLINK_IsHalted()
T2168 001:467.921 - 0.338ms returns FALSE
T2168 001:467.948 JLINK_HasError()
T2168 001:469.594 JLINK_IsHalted()
T2168 001:469.925 - 0.347ms returns FALSE
T2168 001:469.958 JLINK_HasError()
T2168 001:471.587 JLINK_IsHalted()
T2168 001:471.936 - 0.366ms returns FALSE
T2168 001:471.970 JLINK_HasError()
T2168 001:473.579 JLINK_IsHalted()
T2168 001:473.917 - 0.351ms returns FALSE
T2168 001:473.946 JLINK_HasError()
T2168 001:475.573 JLINK_IsHalted()
T2168 001:475.966 - 0.412ms returns FALSE
T2168 001:476.004 JLINK_HasError()
T2168 001:477.566 JLINK_IsHalted()
T2168 001:479.675   CPU_ReadMem(2 bytes @ 0x20000000)
T2168 001:480.004 - 2.454ms returns TRUE
T2168 001:480.038 JLINK_ReadReg(R15 (PC))
T2168 001:480.061 - 0.031ms returns 0x20000000
T2168 001:480.081 JLINK_ClrBPEx(BPHandle = 0x00000009)
T2168 001:480.099 - 0.025ms returns 0x00
T2168 001:480.119 JLINK_ReadReg(R0)
T2168 001:480.135 - 0.021ms returns 0x00000000
T2168 001:481.060 JLINK_WriteMem(0x200005C8, 0x238 Bytes, ...)
T2168 001:481.080   Data:  63 F8 00 28 EB D0 03 20 70 BD 00 00 E4 48 00 20 ...
T2168 001:481.106   CPU_WriteMem(568 bytes @ 0x200005C8)
T2168 001:483.598 - 2.580ms returns 0x238
T2168 001:483.671 JLINK_WriteMem(0x20000800, 0x400 Bytes, ...)
T2168 001:483.694   Data:  52 29 2A D0 56 29 1D D1 80 88 13 21 76 DF 0D E0 ...
T2168 001:483.731   CPU_WriteMem(1024 bytes @ 0x20000800)
T2168 001:487.661 - 4.019ms returns 0x400
T2168 001:487.713 JLINK_WriteMem(0x20000C00, 0x400 Bytes, ...)
T2168 001:487.731   Data:  21 46 68 46 62 DF 00 28 11 D1 20 78 8D F8 12 00 ...
T2168 001:487.766   CPU_WriteMem(1024 bytes @ 0x20000C00)
T2168 001:491.679 - 3.983ms returns 0x400
T2168 001:491.716 JLINK_WriteMem(0x20001000, 0x400 Bytes, ...)
T2168 001:491.734   Data:  0E 30 C2 B2 2A 55 F9 E7 42 70 F7 E7 82 70 F5 E7 ...
T2168 001:491.766   CPU_WriteMem(1024 bytes @ 0x20001000)
T2168 001:495.691 - 3.992ms returns 0x400
T2168 001:495.729 JLINK_WriteMem(0x20001400, 0x1C8 Bytes, ...)
T2168 001:495.746   Data:  20 46 FF F7 85 FF 06 EB 46 00 04 EB 40 00 84 B2 ...
T2168 001:495.779   CPU_WriteMem(456 bytes @ 0x20001400)
T2168 001:497.826 - 2.112ms returns 0x1C8
T2168 001:497.861 JLINK_HasError()
T2168 001:497.883 JLINK_WriteReg(R0, 0x00028000)
T2168 001:497.904 - 0.027ms returns 0
T2168 001:497.925 JLINK_WriteReg(R1, 0x00001000)
T2168 001:497.941 - 0.023ms returns 0
T2168 001:497.962 JLINK_WriteReg(R2, 0x200005C8)
T2168 001:497.977 - 0.022ms returns 0
T2168 001:497.997 JLINK_WriteReg(R3, 0x00000000)
T2168 001:498.013 - 0.022ms returns 0
T2168 001:498.034 JLINK_WriteReg(R4, 0x00000000)
T2168 001:498.049 - 0.022ms returns 0
T2168 001:498.069 JLINK_WriteReg(R5, 0x00000000)
T2168 001:498.085 - 0.022ms returns 0
T2168 001:498.105 JLINK_WriteReg(R6, 0x00000000)
T2168 001:498.120 - 0.022ms returns 0
T2168 001:498.140 JLINK_WriteReg(R7, 0x00000000)
T2168 001:498.154 - 0.018ms returns 0
T2168 001:498.170 JLINK_WriteReg(R8, 0x00000000)
T2168 001:498.185 - 0.021ms returns 0
T2168 001:498.205 JLINK_WriteReg(R9, 0x200005B4)
T2168 001:498.220 - 0.022ms returns 0
T2168 001:498.241 JLINK_WriteReg(R10, 0x00000000)
T2168 001:498.257 - 0.022ms returns 0
T2168 001:498.277 JLINK_WriteReg(R11, 0x00000000)
T2168 001:498.292 - 0.023ms returns 0
T2168 001:498.312 JLINK_WriteReg(R12, 0x00000000)
T2168 001:498.328 - 0.022ms returns 0
T2168 001:498.348 JLINK_WriteReg(R13 (SP), 0x20004000)
T2168 001:498.365 - 0.023ms returns 0
T2168 001:498.385 JLINK_WriteReg(R14, 0x20000001)
T2168 001:498.400 - 0.022ms returns 0
T2168 001:498.420 JLINK_WriteReg(R15 (PC), 0x20000154)
T2168 001:498.437 - 0.023ms returns 0
T2168 001:498.457 JLINK_WriteReg(XPSR, 0x01000000)
T2168 001:498.473 - 0.022ms returns 0
T2168 001:498.533 JLINK_WriteReg(MSP, 0x20004000)
T2168 001:498.660 - 0.143ms returns 0
T2168 001:498.699 JLINK_WriteReg(PSP, 0x20004000)
T2168 001:498.724 - 0.037ms returns 0
T2168 001:498.757 JLINK_WriteReg(CFBP, 0x00000000)
T2168 001:498.785 - 0.038ms returns 0
T2168 001:498.814 JLINK_SetBPEx(Addr = 0x20000000, Type = 0xFFFFFFF2)
T2168 001:498.836 - 0.032ms returns 0x0000000A
T2168 001:498.861 JLINK_Go()
T2168 001:498.890   CPU_ReadMem(4 bytes @ 0xE0001000)
T2168 001:501.317 - 2.480ms
T2168 001:501.362 JLINK_IsHalted()
T2168 001:501.673 - 0.327ms returns FALSE
T2168 001:501.709 JLINK_HasError()
T2168 001:521.563 JLINK_IsHalted()
T2168 001:521.910 - 0.362ms returns FALSE
T2168 001:521.940 JLINK_HasError()
T2168 001:523.544 JLINK_IsHalted()
T2168 001:523.883 - 0.354ms returns FALSE
T2168 001:523.914 JLINK_HasError()
T2168 001:525.538 JLINK_IsHalted()
T2168 001:525.876 - 0.351ms returns FALSE
T2168 001:525.904 JLINK_HasError()
T2168 001:527.530 JLINK_IsHalted()
T2168 001:527.831 - 0.311ms returns FALSE
T2168 001:527.853 JLINK_HasError()
T2168 001:529.529 JLINK_IsHalted()
T2168 001:529.855 - 0.339ms returns FALSE
T2168 001:529.883 JLINK_HasError()
T2168 001:537.508 JLINK_IsHalted()
T2168 001:538.016 - 0.522ms returns FALSE
T2168 001:538.046 JLINK_HasError()
T2168 001:539.549 JLINK_IsHalted()
T2168 001:539.894 - 0.361ms returns FALSE
T2168 001:539.926 JLINK_HasError()
T2168 001:541.496 JLINK_IsHalted()
T2168 001:541.875 - 0.392ms returns FALSE
T2168 001:541.903 JLINK_HasError()
T2168 001:543.512 JLINK_IsHalted()
T2168 001:543.850 - 0.354ms returns FALSE
T2168 001:543.883 JLINK_HasError()
T2168 001:545.490 JLINK_IsHalted()
T2168 001:545.873 - 0.398ms returns FALSE
T2168 001:545.907 JLINK_HasError()
T2168 001:547.479 JLINK_IsHalted()
T2168 001:547.789 - 0.320ms returns FALSE
T2168 001:547.811 JLINK_HasError()
T2168 001:549.468 JLINK_IsHalted()
T2168 001:549.840 - 0.387ms returns FALSE
T2168 001:549.873 JLINK_HasError()
